! Created Sun Dec 02 15:50:09 2012
# hz S ma R 50
! 2 Port Network Data from SP1.SP block
! freq  magS11  angS11  magS21  angS21  magS12  angS12  magS22  angS22  
!     
          2.2e+009       0.405738746         113.937429        0.913989097         23.9374291        0.913989097         23.9374291        0.405738746         113.937429
         2.21e+009       0.403121323         113.773453        0.915146545         23.7734531        0.915146545         23.7734531        0.403121323         113.773453
         2.22e+009       0.400511719         113.610172        0.916291636         23.6101724        0.916291636         23.6101724        0.400511719         113.610172
         2.23e+009       0.397909891         113.447581        0.917424503         23.4475805        0.917424503         23.4475805        0.397909891         113.447581
         2.24e+009       0.395315796         113.285671        0.918545274         23.2856709        0.918545274         23.2856709        0.395315796         113.285671
         2.25e+009       0.392729393         113.124437        0.919654078         23.1244372        0.919654078         23.1244372        0.392729393         113.124437
         2.26e+009       0.390150637         112.963873        0.920751042         22.9638728        0.920751042         22.9638728        0.390150637         112.963873
         2.27e+009       0.387579485         112.803971        0.921836289         22.8039715        0.921836289         22.8039715        0.387579485         112.803971
         2.28e+009       0.385015893         112.644727        0.922909943         22.6447269        0.922909943         22.6447269        0.385015893         112.644727
         2.29e+009       0.382459817         112.486133        0.923972125         22.4861328        0.923972125         22.4861328        0.382459817         112.486133
          2.3e+009       0.379911212         112.328183        0.925022957          22.328183        0.925022957          22.328183        0.379911212         112.328183
         2.31e+009       0.377370033         112.170871        0.926062556         22.1708713        0.926062556         22.1708713        0.377370033         112.170871
         2.32e+009       0.374836236         112.014192         0.92709104         22.0141916         0.92709104         22.0141916        0.374836236         112.014192
         2.33e+009       0.372309776         111.858138        0.928108523         21.8581378        0.928108523         21.8581378        0.372309776         111.858138
         2.34e+009       0.369790606         111.702704        0.929115121          21.702704        0.929115121          21.702704        0.369790606         111.702704
         2.35e+009       0.367278681         111.547884        0.930110945         21.5478841        0.930110945         21.5478841        0.367278681         111.547884
         2.36e+009       0.364773956         111.393672        0.931096107         21.3936722        0.931096107         21.3936722        0.364773956         111.393672
         2.37e+009       0.362276384         111.240063        0.932070717         21.2400625        0.932070717         21.2400625        0.362276384         111.240063
         2.38e+009       0.359785919         111.087049        0.933034883         21.0870491        0.933034883         21.0870491        0.359785919         111.087049
         2.39e+009       0.357302514         110.934626        0.933988712         20.9346263        0.933988712         20.9346263        0.357302514         110.934626
          2.4e+009       0.354826124         110.782788        0.934932309         20.7827883        0.934932309         20.7827883        0.354826124         110.782788
         2.41e+009       0.352356701         110.631529        0.935865779         20.6315294        0.935865779         20.6315294        0.352356701         110.631529
         2.42e+009       0.349894198         110.480844        0.936789224         20.4808439        0.936789224         20.4808439        0.349894198         110.480844
         2.43e+009        0.34743857         110.330726        0.937702746         20.3307264        0.937702746         20.3307264         0.34743857         110.330726
         2.44e+009       0.344989768         110.181171        0.938606446         20.1811711        0.938606446         20.1811711        0.344989768         110.181171
         2.45e+009       0.342547745         110.032173        0.939500422         20.0321727        0.939500422         20.0321727        0.342547745         110.032173
         2.46e+009       0.340112456         109.883726        0.940384771         19.8837256        0.940384771         19.8837256        0.340112456         109.883726
         2.47e+009       0.337683851         109.735824         0.94125959         19.7358244         0.94125959         19.7358244        0.337683851         109.735824
         2.48e+009       0.335261884         109.588464        0.942124975         19.5884638        0.942124975         19.5884638        0.335261884         109.588464
         2.49e+009       0.332846508         109.441638        0.942981019         19.4416383        0.942981019         19.4416383        0.332846508         109.441638
          2.5e+009       0.330437675         109.295343        0.943827814         19.2953427        0.943827814         19.2953427        0.330437675         109.295343
         2.51e+009       0.328035338         109.149572        0.944665453         19.1495718        0.944665453         19.1495718        0.328035338         109.149572
         2.52e+009       0.325639448          109.00432        0.945494024         19.0043203        0.945494024         19.0043203        0.325639448          109.00432
         2.53e+009       0.323249959         108.859583        0.946313618          18.859583        0.946313618          18.859583        0.323249959         108.859583
         2.54e+009       0.320866824         108.715355        0.947124322         18.7153548        0.947124322         18.7153548        0.320866824         108.715355
         2.55e+009       0.318489993         108.571631        0.947926223         18.5716306        0.947926223         18.5716306        0.318489993         108.571631
         2.56e+009       0.316119421         108.428405        0.948719406         18.4284054        0.948719406         18.4284054        0.316119421         108.428405
         2.57e+009       0.313755059         108.285674        0.949503956         18.2856742        0.949503956         18.2856742        0.313755059         108.285674
         2.58e+009        0.31139686         108.143432        0.950279956         18.1434319        0.950279956         18.1434319         0.31139686         108.143432
         2.59e+009       0.309044776         108.001674        0.951047489         18.0016737        0.951047489         18.0016737        0.309044776         108.001674
          2.6e+009       0.306698759         107.860395        0.951806635         17.8603946        0.951806635         17.8603946        0.306698759         107.860395
         2.61e+009       0.304358763          107.71959        0.952557475         17.7195897        0.952557475         17.7195897        0.304358763          107.71959
         2.62e+009        0.30202474         107.579254        0.953300087         17.5792544        0.953300087         17.5792544         0.30202474         107.579254
         2.63e+009       0.299696642         107.439384         0.95403455         17.4393836         0.95403455         17.4393836        0.299696642         107.439384
         2.64e+009       0.297374422         107.299973         0.95476094         17.2999728         0.95476094         17.2999728        0.297374422         107.299973
         2.65e+009       0.295058032         107.161017        0.955479334         17.1610173        0.955479334         17.1610173        0.295058032         107.161017
         2.66e+009       0.292747426         107.022512        0.956189806         17.0225122        0.956189806         17.0225122        0.292747426         107.022512
         2.67e+009       0.290442555         106.884453         0.95689243          16.884453         0.95689243          16.884453        0.290442555         106.884453
         2.68e+009       0.288143374         106.746835        0.957587279         16.7468351        0.957587279         16.7468351        0.288143374         106.746835
         2.69e+009       0.285849834         106.609654        0.958274424         16.6096539        0.958274424         16.6096539        0.285849834         106.609654
          2.7e+009       0.283561889         106.472905        0.958953938         16.4729049        0.958953938         16.4729049        0.283561889         106.472905
         2.71e+009       0.281279491         106.336584        0.959625889         16.3365836        0.959625889         16.3365836        0.281279491         106.336584
         2.72e+009       0.279002595         106.200685        0.960290348         16.2006855        0.960290348         16.2006855        0.279002595         106.200685
         2.73e+009       0.276731152         106.065206        0.960947381         16.0652061        0.960947381         16.0652061        0.276731152         106.065206
         2.74e+009       0.274465116         105.930141        0.961597057         15.9301411        0.961597057         15.9301411        0.274465116         105.930141
         2.75e+009       0.272204441         105.795486        0.962239441         15.7954861        0.962239441         15.7954861        0.272204441         105.795486
         2.76e+009        0.26994908         105.661237        0.962874599         15.6612368        0.962874599         15.6612368         0.26994908         105.661237
         2.77e+009       0.267698986         105.527389        0.963502596         15.5273889        0.963502596         15.5273889        0.267698986         105.527389
         2.78e+009       0.265454113         105.393938        0.964123495          15.393938        0.964123495          15.393938        0.265454113         105.393938
         2.79e+009       0.263214414          105.26088        0.964737359           15.26088        0.964737359           15.26088        0.263214414          105.26088
          2.8e+009       0.260979844         105.128211         0.96534425         15.1282106         0.96534425         15.1282106        0.260979844         105.128211
         2.81e+009       0.258750357         104.995926        0.965944229         14.9959257        0.965944229         14.9959257        0.258750357         104.995926
         2.82e+009       0.256525906         104.864021        0.966537356          14.864021        0.966537356          14.864021        0.256525906         104.864021
         2.83e+009       0.254306445         104.732493         0.96712369         14.7324926         0.96712369         14.7324926        0.254306445         104.732493
         2.84e+009       0.252091928         104.601336        0.967703291         14.6013363        0.967703291         14.6013363        0.252091928         104.601336
         2.85e+009       0.249882311         104.470548        0.968276216         14.4705481        0.968276216         14.4705481        0.249882311         104.470548
         2.86e+009       0.247677547         104.340124        0.968842522         14.3401238        0.968842522         14.3401238        0.247677547         104.340124
         2.87e+009        0.24547759          104.21006        0.969402266         14.2100596        0.969402266         14.2100596         0.24547759          104.21006
         2.88e+009       0.243282396         104.080351        0.969955502         14.0803514        0.969955502         14.0803514        0.243282396         104.080351
         2.89e+009        0.24109192         103.950995        0.970502286         13.9509953        0.970502286         13.9509953         0.24109192         103.950995
          2.9e+009       0.238906115         103.821987        0.971042671         13.8219874        0.971042671         13.8219874        0.238906115         103.821987
         2.91e+009       0.236724937         103.693324         0.97157671         13.6933238         0.97157671         13.6933238        0.236724937         103.693324
         2.92e+009       0.234548342         103.565001        0.972104457         13.5650006        0.972104457         13.5650006        0.234548342         103.565001
         2.93e+009       0.232376283         103.437014        0.972625962          13.437014        0.972625962          13.437014        0.232376283         103.437014
         2.94e+009       0.230208718          103.30936        0.973141278         13.3093601        0.973141278         13.3093601        0.230208718          103.30936
         2.95e+009         0.2280456         103.182035        0.973650453         13.1820353        0.973650453         13.1820353          0.2280456         103.182035
         2.96e+009       0.225886886         103.055036        0.974153538         13.0550357        0.974153538         13.0550357        0.225886886         103.055036
         2.97e+009       0.223732531         102.928358        0.974650581         12.9283576        0.974650581         12.9283576        0.223732531         102.928358
         2.98e+009       0.221582492         102.801997         0.97514163         12.8019974         0.97514163         12.8019974        0.221582492         102.801997
         2.99e+009       0.219436723         102.675951        0.975626734         12.6759512        0.975626734         12.6759512        0.219436723         102.675951
            3e+009       0.217295182         102.550216        0.976105939         12.5502155        0.976105939         12.5502155        0.217295182         102.550216
