! Created Sun Dec 02 15:44:31 2012
# hz S ma R 50
! 1 Port Network Data from SP1.SP block
! freq  magS11  angS11  
!     
                 0   1.01001853e-006                  0
          10000000   8.88181195e-014        -90.1432392
          20000000    4.4408921e-014                 90
          30000000   4.44094761e-014         89.7135235
          40000000    4.4408921e-014                 90
          50000000   2.22044605e-014                 90
          60000000   2.22055707e-014        -90.5729387
          70000000   2.22055707e-014         89.4270613
          80000000   1.11044505e-014         88.8542372
          90000000   2.22055707e-014        -90.5729387
         100000000   1.11044505e-014        -91.1457628
         110000000                 0                  0
         120000000                 0                  0
         130000000   2.22044605e-016                180
         140000000   1.11044505e-014         88.8542372
         150000000   2.22044605e-016                  0
         160000000   5.55555424e-015          -92.29061
         170000000   1.11044505e-014         88.8542372
         180000000                 0                  0
         190000000   5.55555424e-015          -92.29061
         200000000                 0                  0
         210000000   1.11044505e-014         88.8542372
         220000000   1.11044505e-014         88.8542372
         230000000   5.55111512e-015                -90
         240000000   5.55555424e-015           87.70939
         250000000   5.55555424e-015           87.70939
         260000000   5.55555424e-015           87.70939
         270000000   5.55555424e-015          -92.29061
         280000000   5.55555424e-015           87.70939
         290000000   2.78442518e-015         85.4260787
         300000000   5.55555424e-015           87.70939
         310000000   2.78442518e-015        -94.5739213
         320000000   2.77555756e-015                -90
         330000000   2.77555756e-015                 90
         340000000                 0                  0
         350000000   2.77555756e-015                -90
         360000000   5.55555424e-015          -92.29061
         370000000   2.78442518e-015        -94.5739213
         380000000   5.55555424e-015          -92.29061
         390000000   2.22044605e-016                  0
         400000000   2.77555756e-015                 90
         410000000   5.55555424e-015           87.70939
         420000000                 0                  0
         430000000   2.77555756e-015                 90
         440000000                 0                  0
         450000000   2.77555756e-015                 90
         460000000   2.78442518e-015         85.4260787
         470000000   2.77555756e-015                -90
         480000000   2.78442518e-015         85.4260787
         490000000   2.77555756e-015                 90
         500000000   2.22044605e-016                  0
         510000000   5.55555424e-015           87.70939
         520000000   2.22044605e-016                180
         530000000   2.78442518e-015         85.4260787
         540000000   2.78442518e-015        -94.5739213
         550000000                 0                  0
         560000000                 0                  0
         570000000   2.22044605e-016                180
         580000000   2.78442518e-015        -94.5739213
         590000000   2.78442518e-015         85.4260787
         600000000                 0                  0
         610000000   1.38777878e-015                 90
         620000000   1.38777878e-015                -90
         630000000   2.22044605e-016                180
         640000000   2.22044605e-016                180
         650000000   1.38777878e-015                 90
         660000000   1.38777878e-015                 90
         670000000   1.40543009e-015        -99.0902769
         680000000   2.22044605e-016                180
         690000000                 0                  0
         700000000   1.38777878e-015                -90
         710000000   2.77555756e-015                 90
         720000000   2.22044605e-016                180
         730000000   1.40543009e-015         80.9097231
         740000000   2.78442518e-015        -94.5739213
         750000000   1.40543009e-015        -99.0902769
         760000000   2.78442518e-015        -94.5739213
         770000000                 0                  0
         780000000   1.38777878e-015                 90
         790000000   2.77555756e-015                 90
         800000000   1.38777878e-015                 90
         810000000                 0                  0
         820000000                 0                  0
         830000000   1.38777878e-015                -90
         840000000   1.40543009e-015         80.9097231
         850000000   1.40543009e-015         80.9097231
         860000000   1.40543009e-015        -99.0902769
         870000000   2.78442518e-015        -94.5739213
         880000000                 0                  0
         890000000   2.78442518e-015         85.4260787
         900000000   1.40543009e-015        -99.0902769
         910000000                 0                  0
         920000000   1.38777878e-015                -90
         930000000                 0                  0
         940000000   2.22044605e-016                  0
         950000000                 0                  0
         960000000   1.38777878e-015                -90
         970000000                 0                  0
         980000000   1.38777878e-015                 90
         990000000                 0                  0
            1e+009                 0                  0
         1.01e+009   2.22044605e-016                180
         1.02e+009   1.38777878e-015                -90
         1.03e+009   2.22044605e-016                  0
         1.04e+009                 0                  0
         1.05e+009   1.40543009e-015         80.9097231
         1.06e+009   1.40543009e-015         80.9097231
         1.07e+009   2.78442518e-015         85.4260787
         1.08e+009                 0                  0
         1.09e+009   1.40543009e-015        -99.0902769
          1.1e+009   2.22044605e-016                180
         1.11e+009   1.40543009e-015        -99.0902769
         1.12e+009   1.40543009e-015        -99.0902769
         1.13e+009   2.22044605e-016                  0
         1.14e+009   2.22044605e-016                180
         1.15e+009   2.22044605e-016                180
         1.16e+009                 0                  0
         1.17e+009                 0                  0
         1.18e+009   2.22044605e-016                180
         1.19e+009   2.22044605e-016                  0
          1.2e+009   1.40543009e-015         80.9097231
         1.21e+009    6.9388939e-016                -90
         1.22e+009    6.9388939e-016                 90
         1.23e+009   1.40543009e-015         80.9097231
         1.24e+009   2.22044605e-016                  0
         1.25e+009                 0                  0
         1.26e+009                 0                  0
         1.27e+009   2.22044605e-016                  0
         1.28e+009                 0                  0
         1.29e+009   1.40543009e-015        -99.0902769
          1.3e+009   7.28550817e-016        -107.744672
         1.31e+009   1.40543009e-015         80.9097231
         1.32e+009   2.22044605e-016                  0
         1.33e+009    6.9388939e-016                 90
         1.34e+009   2.22044605e-016                180
         1.35e+009   7.28550817e-016        -107.744672
         1.36e+009   1.40543009e-015        -99.0902769
         1.37e+009   1.40543009e-015        -99.0902769
         1.38e+009   7.28550817e-016        -107.744672
         1.39e+009   1.40543009e-015        -99.0902769
          1.4e+009    6.9388939e-016                 90
         1.41e+009                 0                  0
         1.42e+009   7.28550817e-016        -107.744672
         1.43e+009   7.28550817e-016         72.2553284
         1.44e+009   1.40543009e-015         80.9097231
         1.45e+009   7.28550817e-016         72.2553284
         1.46e+009                 0                  0
         1.47e+009   2.22044605e-016                  0
         1.48e+009   2.22044605e-016                  0
         1.49e+009   7.28550817e-016         72.2553284
          1.5e+009                 0                  0
         1.51e+009   2.22044605e-016                  0
         1.52e+009    6.9388939e-016                 90
         1.53e+009   2.22044605e-016                180
         1.54e+009                 0                  0
         1.55e+009    6.9388939e-016                 90
         1.56e+009   7.28550817e-016         72.2553284
         1.57e+009   7.28550817e-016        -107.744672
         1.58e+009                 0                  0
         1.59e+009                 0                  0
          1.6e+009    6.9388939e-016                -90
         1.61e+009   2.22044605e-016                180
         1.62e+009                 0                  0
         1.63e+009   7.28550817e-016         72.2553284
         1.64e+009   7.28550817e-016        -107.744672
         1.65e+009   7.28550817e-016         107.744672
         1.66e+009   2.22044605e-016                180
         1.67e+009   1.40543009e-015         80.9097231
         1.68e+009                 0                  0
         1.69e+009    6.9388939e-016                 90
          1.7e+009   2.22044605e-016                  0
         1.71e+009                 0                  0
         1.72e+009    6.9388939e-016                 90
         1.73e+009   1.40543009e-015        -99.0902769
         1.74e+009   1.40543009e-015         80.9097231
         1.75e+009   7.28550817e-016        -107.744672
         1.76e+009                 0                  0
         1.77e+009                 0                  0
         1.78e+009   2.22044605e-016                180
         1.79e+009   7.28550817e-016        -107.744672
          1.8e+009                 0                  0
         1.81e+009   2.22044605e-016                  0
         1.82e+009   7.28550817e-016         72.2553284
         1.83e+009   7.28550817e-016        -107.744672
         1.84e+009                 0                  0
         1.85e+009   1.40543009e-015        -99.0902769
         1.86e+009   2.22044605e-016                  0
         1.87e+009   7.28550817e-016         72.2553284
         1.88e+009   7.28550817e-016        -72.2553284
         1.89e+009   7.28550817e-016         72.2553284
          1.9e+009    6.9388939e-016                -90
         1.91e+009   1.40543009e-015         80.9097231
         1.92e+009   1.40543009e-015         80.9097231
         1.93e+009   7.28550817e-016        -107.744672
         1.94e+009                 0                  0
         1.95e+009    6.9388939e-016                -90
         1.96e+009   7.28550817e-016         72.2553284
         1.97e+009   2.22044605e-016                180
         1.98e+009   2.22044605e-016                180
         1.99e+009    6.9388939e-016                 90
            2e+009   7.28550817e-016         72.2553284
         2.01e+009   7.28550817e-016         72.2553284
         2.02e+009                 0                  0
         2.03e+009   7.28550817e-016        -107.744672
         2.04e+009   7.28550817e-016        -107.744672
         2.05e+009   2.22044605e-016                180
         2.06e+009    6.9388939e-016                -90
         2.07e+009   7.28550817e-016         72.2553284
         2.08e+009   7.28550817e-016         72.2553284
         2.09e+009   1.40543009e-015        -99.0902769
          2.1e+009   7.28550817e-016         72.2553284
         2.11e+009    6.9388939e-016                -90
         2.12e+009   2.22044605e-016                180
         2.13e+009   7.28550817e-016        -107.744672
         2.14e+009    6.9388939e-016                -90
         2.15e+009   7.28550817e-016        -107.744672
         2.16e+009   7.28550817e-016         72.2553284
         2.17e+009   7.28550817e-016        -107.744672
         2.18e+009   7.28550817e-016        -107.744672
         2.19e+009   7.28550817e-016         72.2553284
          2.2e+009   1.40543009e-015        -99.0902769
         2.21e+009                 0                  0
         2.22e+009   2.22044605e-016                  0
         2.23e+009   7.28550817e-016         72.2553284
         2.24e+009   7.28550817e-016        -107.744672
         2.25e+009   7.28550817e-016        -107.744672
         2.26e+009   7.28550817e-016         72.2553284
         2.27e+009   7.28550817e-016         72.2553284
         2.28e+009   4.11915559e-016        -122.619243
         2.29e+009   4.11915559e-016         57.3807569
          2.3e+009   3.46944695e-016                -90
         2.31e+009   2.22044605e-016                180
         2.32e+009                 0                  0
         2.33e+009   2.22044605e-016                  0
         2.34e+009   2.22044605e-016                180
         2.35e+009   4.11915559e-016        -122.619243
         2.36e+009   7.28550817e-016        -107.744672
         2.37e+009   4.11915559e-016        -122.619243
         2.38e+009                 0                  0
         2.39e+009                 0                  0
          2.4e+009   4.11915559e-016         57.3807569
         2.41e+009   4.11915559e-016        -122.619243
         2.42e+009   4.11915559e-016         57.3807569
         2.43e+009   7.28550817e-016         72.2553284
         2.44e+009   7.28550817e-016        -107.744672
         2.45e+009   1.06425533e-015        -102.042575
         2.46e+009   2.22044605e-016                  0
         2.47e+009   4.11915559e-016        -122.619243
         2.48e+009   1.06425533e-015         77.9574249
         2.49e+009   2.22044605e-016                180
          2.5e+009                 0                  0
         2.51e+009   3.46944695e-016                 90
         2.52e+009   7.28550817e-016        -107.744672
         2.53e+009   2.22044605e-016                  0
         2.54e+009                 0                  0
         2.55e+009   4.11915559e-016        -122.619243
         2.56e+009   4.11915559e-016        -122.619243
         2.57e+009    6.9388939e-016                -90
         2.58e+009   7.28550817e-016         72.2553284
         2.59e+009   2.22044605e-016                  0
          2.6e+009   4.11915559e-016        -122.619243
         2.61e+009   4.11915559e-016         57.3807569
         2.62e+009                 0                  0
         2.63e+009   4.11915559e-016        -122.619243
         2.64e+009   4.11915559e-016        -122.619243
         2.65e+009   2.22044605e-016                  0
         2.66e+009   4.11915559e-016         57.3807569
         2.67e+009                 0                  0
         2.68e+009   4.11915559e-016         57.3807569
         2.69e+009   7.28550817e-016        -107.744672
          2.7e+009   2.22044605e-016                180
         2.71e+009   7.28550817e-016        -107.744672
         2.72e+009                 0                  0
         2.73e+009                 0                  0
         2.74e+009   7.28550817e-016        -107.744672
         2.75e+009                 0                  0
         2.76e+009   4.11915559e-016         57.3807569
         2.77e+009   3.46944695e-016                 90
         2.78e+009   2.22044605e-016                  0
         2.79e+009   3.46944695e-016                -90
          2.8e+009   7.28550817e-016        -107.744672
         2.81e+009                 0                  0
         2.82e+009   2.22044605e-016                180
         2.83e+009   4.11915559e-016         57.3807569
         2.84e+009   4.11915559e-016         57.3807569
         2.85e+009                 0                  0
         2.86e+009   2.22044605e-016                  0
         2.87e+009   2.22044605e-016                  0
         2.88e+009                 0                  0
         2.89e+009                 0                  0
          2.9e+009   4.11915559e-016        -122.619243
         2.91e+009                 0                  0
         2.92e+009   3.46944695e-016                 90
         2.93e+009   4.11915559e-016         57.3807569
         2.94e+009   4.11915559e-016        -122.619243
         2.95e+009   2.22044605e-016                180
         2.96e+009                 0                  0
         2.97e+009                 0                  0
         2.98e+009                 0                  0
         2.99e+009   4.11915559e-016         57.3807569
            3e+009   4.11915559e-016         57.3807569
         3.01e+009   4.11915559e-016        -122.619243
         3.02e+009                 0                  0
         3.03e+009   4.11915559e-016        -122.619243
         3.04e+009    6.9388939e-016                 90
         3.05e+009   4.11915559e-016         57.3807569
         3.06e+009   3.46944695e-016                 90
         3.07e+009   2.22044605e-016                  0
         3.08e+009   4.11915559e-016         57.3807569
         3.09e+009   4.11915559e-016        -122.619243
          3.1e+009   2.22044605e-016                  0
         3.11e+009   4.11915559e-016         57.3807569
         3.12e+009   3.46944695e-016                 90
         3.13e+009   4.11915559e-016        -122.619243
         3.14e+009                 0                  0
         3.15e+009   3.46944695e-016                 90
         3.16e+009                 0                  0
         3.17e+009   4.11915559e-016        -122.619243
         3.18e+009   4.11915559e-016         57.3807569
         3.19e+009   2.22044605e-016                  0
          3.2e+009   2.22044605e-016                180
         3.21e+009   3.46944695e-016                 90
         3.22e+009   2.22044605e-016                  0
         3.23e+009   4.11915559e-016        -122.619243
         3.24e+009   4.11915559e-016        -122.619243
         3.25e+009                 0                  0
         3.26e+009                 0                  0
         3.27e+009   3.46944695e-016                 90
         3.28e+009   4.11915559e-016        -122.619243
         3.29e+009   4.11915559e-016         57.3807569
          3.3e+009                 0                  0
         3.31e+009   3.46944695e-016                 90
         3.32e+009   4.11915559e-016        -122.619243
         3.33e+009   4.11915559e-016        -122.619243
         3.34e+009   4.11915559e-016         57.3807569
         3.35e+009                 0                  0
         3.36e+009                 0                  0
         3.37e+009   3.46944695e-016                 90
         3.38e+009   2.22044605e-016                  0
         3.39e+009   3.46944695e-016                -90
          3.4e+009   3.46944695e-016                 90
         3.41e+009   4.11915559e-016         57.3807569
         3.42e+009   7.28550817e-016         72.2553284
         3.43e+009                 0                  0
         3.44e+009   2.22044605e-016                180
         3.45e+009                 0                  0
         3.46e+009   4.11915559e-016         57.3807569
         3.47e+009   4.11915559e-016        -122.619243
