! Created Tue Nov 27 07:09:33 2012
# hz S ma R 50
! 2 Port Network Data from SP1.SP block
! freq  magS11  angS11  magS21  angS21  magS12  angS12  magS22  angS22  
!     
            2e+009       0.716696857        -71.2048268         6.29347436         103.082124       0.0373809811         32.6551245         0.45642412        -52.8349138
         2.01e+009       0.713245196          -71.74539         6.30526197         102.621685       0.0375708736         32.2544188        0.455672446         -53.231644
         2.02e+009       0.710576481        -72.2104025         6.28896683         102.209719       0.0377717075         31.8681857        0.454988426        -53.6107663
         2.03e+009       0.713420305         -72.136352          6.0762416         102.136499       0.0380528716         31.5826986        0.454813145        -53.8648818
         2.04e+009       0.713518077        -72.3656069          5.9683604         101.883924       0.0385093643         31.2181237        0.456638324        -54.0970411
         2.05e+009       0.705355593        -73.5084241         6.17557261         101.093885        0.039486656          30.616885        0.464356669        -54.2703893
         2.06e+009       0.699223949        -74.4043936         6.30406882         100.440061       0.0399373357         30.1560613        0.464585586        -54.6660134
         2.07e+009       0.696458986        -74.8848097         6.30274307         100.010095       0.0395174594         29.9260951        0.452511125        -55.4417951
         2.08e+009       0.693361756        -75.3717221         6.28917686         99.5659697       0.0393363746          29.596903        0.445968082        -55.9935091
         2.09e+009       0.689933468        -75.8650933         6.26339043         99.1077607       0.0393937605         29.1685607        0.444957443         -56.316977
          2.1e+009        0.68743813        -76.3823795         6.24557483         98.6532397       0.0395848766         28.7769064        0.443746115        -56.7223484
         2.11e+009        0.68549956        -76.9148856         6.23251466         98.2008129        0.039855971         28.4071462        0.442412483        -57.1769635
         2.12e+009       0.685265603         -77.171509         6.13164286         97.9460201       0.0401449978         27.8946201        0.440681837        -57.4507702
         2.13e+009       0.685601003        -77.3361155         6.00140983         97.7570194       0.0404403383         27.3344194        0.438833138        -57.6623296
         2.14e+009       0.678203124        -78.3235738         6.12284688         97.0804841       0.0412426796         26.9311507        0.445941174        -57.7670386
         2.15e+009       0.669725933        -79.4321281         6.27946552         96.3365973        0.042112914         26.5525973        0.454239041        -57.8530703
         2.16e+009       0.667540203        -79.8250176         6.25020888         95.9564295       0.0415921551         26.1681628        0.442209111        -58.5687878
         2.17e+009       0.665307109        -80.2384787         6.22277008         95.5644743       0.0411419328         25.7749409         0.43151433        -59.2368178
         2.18e+009       0.662753237        -80.7894226         6.20809562         95.0904432       0.0411844959         25.3206432        0.430185207        -59.5445634
         2.19e+009        0.66002327        -81.3323303         6.19658172         94.6276322       0.0413046054         24.8951656        0.428855952        -59.8817138
          2.2e+009       0.656769468        -81.8472259         6.19461341         94.1984828       0.0416578717         24.5561495        0.427522307        -60.3084873
         2.21e+009       0.653706768        -82.3290731         6.18108448         93.7940859       0.0418811755         24.1458859        0.426183247        -60.6798519
         2.22e+009        0.65096146           -82.7545         6.14833841         93.4307904       0.0418886858         23.6167238        0.424842507        -60.9583513
         2.23e+009       0.647720682        -83.3352562         6.15014566         93.0051107       0.0424061213         23.2414441        0.428333903        -60.9966255
         2.24e+009       0.643987115        -84.0725189         6.18639367         92.5173324       0.0434317439         23.0203324        0.436621656        -60.7930706
         2.25e+009       0.641089904         -84.631874         6.17002592         92.0635367       0.0434475903           22.49787        0.431958012        -61.3394769
         2.26e+009        0.63869285        -85.0844831         6.12215695         91.6299573       0.0428588255          21.794424        0.419538338        -62.3401048
         2.27e+009       0.634336543        -85.7019778         6.12948474         91.1543087       0.0432417872         21.4153087        0.420654415        -62.4937617
         2.28e+009       0.629336616        -86.3761892         6.15511028         90.6651682       0.0439468472         21.1448349        0.426258892        -62.3624651
         2.29e+009       0.626176702        -86.8164501         6.14338086          90.279086       0.0434521709          20.819686        0.419756856        -62.8251394
          2.3e+009       0.623280062        -87.2242594         6.12631587         89.9077183       0.0427866799         20.4867183        0.411526761        -63.3737075
         2.31e+009       0.621135316        -87.6871767         6.11372364         89.4962621       0.0430169795         20.0731287        0.410340117        -63.7638647
         2.32e+009       0.618822802        -88.1657275         6.10361502         89.0790623       0.0432848443         19.6758623        0.409691867        -64.0998267
         2.33e+009       0.615335144        -88.7446754         6.11100515         88.6219362       0.0438176828         19.3931362        0.412815447        -64.0577703
         2.34e+009       0.613091369        -89.1857171         6.08510723         88.2583836       0.0441588045          19.068117        0.413729428        -64.1852416
         2.35e+009       0.614568229        -89.2073881         5.95937624         88.1749577         0.04392764         18.6156244        0.408042643        -64.8245887
         2.36e+009       0.612270767        -89.6140234          5.9283608         87.8341942       0.0440450367         18.1805942         0.40627766        -65.2134275
         2.37e+009        0.60371203        -90.6656667         6.05499812          87.066117       0.0447411025         17.7762503        0.411012277        -65.1829169
         2.38e+009       0.598131583        -91.4938538          6.1068324         86.4746309       0.0448915884         17.3543643        0.408938803        -65.5520467
         2.39e+009       0.595493203        -92.0967322         6.08434853         86.0580313       0.0444994816         16.9132313        0.400118766        -66.3278493
          2.4e+009       0.592902768         -92.594072         6.06344953         85.6650944        0.044381659         16.5040944        0.395922957         -66.798188
         2.41e+009       0.590341329        -93.0283309         6.04350336         85.2863298       0.0444281454         16.1141298        0.394502848        -67.0835735
         2.42e+009       0.586696194          -93.58928          6.0399763         84.8676109       0.0446625515         15.8454109         0.39447821        -67.3282999
         2.43e+009       0.582698437        -94.1942313          6.0418853         84.4358938       0.0449588904         15.6174272        0.394914402        -67.5591119
         2.44e+009       0.584973547        -94.1943658         5.90449761         84.3484554       0.0449918537         15.2273887        0.393823723        -67.7682542
         2.45e+009       0.588156794        -94.1072939         5.74688007         84.3104553       0.0449874916         14.8144553        0.392519187         -67.972721
         2.46e+009       0.578133707        -95.2471686         5.89965259         83.5436308       0.0457957517         14.2460308        0.397289185        -67.7860823
         2.47e+009       0.569057671         -96.300829         6.03172127         82.8341242       0.0464032844         13.6989909        0.400084304        -67.7199729
         2.48e+009       0.566069151        -96.7126024         6.02467401         82.5048605         0.04563764         13.2806605        0.389846189         -68.574715
         2.49e+009       0.563290736        -97.1391228         6.01476907         82.1783659       0.0450779149         12.8818992        0.381910075        -69.2743166
          2.5e+009       0.561133128        -97.6071571         5.99632046         81.8599468       0.0451340278         12.5416135        0.380885634        -69.4988425
         2.51e+009       0.558919832        -98.1015786         5.98071822         81.4934943       0.0452032216         12.3054943        0.380374377        -69.7433713
         2.52e+009        0.55661236        -98.6390866         5.96985937         81.0470062       0.0452943188         12.2430062        0.380717208        -70.0216321
         2.53e+009       0.556905724        -98.8473818         5.89219529         80.8212572       0.0454332754         11.9271239         0.38008533        -70.2841804
         2.54e+009       0.559805147        -98.7244704         5.74750152         80.8164324       0.0456209135         11.3580324        0.378490492        -70.5293243
         2.55e+009       0.555071778        -99.4120713         5.79336599         80.3794477       0.0462145668         10.9034477        0.382648672        -70.5309501
         2.56e+009        0.54582307         -100.59216         5.95295396         79.6855209       0.0470475439         10.5199209        0.390157955        -70.3806262
         2.57e+009       0.541502235        -101.294338         5.98164701         79.2073087       0.0466968874         10.1445087        0.383407028        -70.9322369
         2.58e+009       0.538813023        -101.837558         5.96688679         78.8005004       0.0459533699         9.77130042        0.371925718        -71.7243345
         2.59e+009       0.536453822        -102.249591          5.9512749          78.418479       0.0467665305         9.67161237        0.379963125        -71.1804642
          2.6e+009       0.534144899        -102.644041         5.93553618         78.0400186       0.0478010429         9.61101859        0.390776026        -70.4474976
         2.61e+009       0.532513399        -103.180599         5.92746419         77.7416203       0.0467630753          9.1035536        0.377591962         -71.612259
         2.62e+009       0.530708768        -103.723074         5.92057908         77.4278093       0.0458930641         8.62574263         0.36629305         -72.639071
         2.63e+009       0.527658839        -104.295487         5.92217015         77.0061219        0.046193368         8.35552188        0.368231493        -72.6551528
         2.64e+009        0.52490681        -104.855095         5.92094579         76.6082446       0.0463501521         8.07444464         0.36890872        -72.7931283
         2.65e+009       0.523022893        -105.371011         5.91135403         76.2811923       0.0460783542         7.76019231        0.365815897        -73.2995291
         2.66e+009       0.521192673         -105.85224         5.89578965         75.9373479       0.0459796908         7.47314789        0.363214896         -73.752514
         2.67e+009        0.51944583        -106.274056         5.87029835         75.5654476       0.0461693099         7.23138092        0.361434162        -74.1160611
         2.68e+009       0.517009624         -106.80854         5.87224251         75.1678682       0.0467808681         6.84313489        0.366665152         -74.051166
         2.69e+009       0.513892222         -107.45678         5.90155353         74.7448621       0.0478128998         6.30866212        0.378874089        -73.5599954
          2.7e+009       0.513570352        -107.768931         5.84386856         74.4770116       0.0476915204         5.96667825        0.375375344        -73.8741745
         2.71e+009        0.51492227        -107.878135         5.73392453         74.3020615       0.0468782991         5.73999479        0.362432188        -74.6731161
         2.72e+009       0.510501753        -108.675952         5.76735795         73.8019055       0.0472422771         5.56450548        0.363559791        -74.7719412
         2.73e+009       0.504207766        -109.709243         5.84827805         73.1948534       0.0479957962         5.40758677        0.369338089        -74.6333161
         2.74e+009       0.501505144        -110.274629         5.86454667         72.8178651        0.047539432         5.21659845        0.362962077        -75.3920795
         2.75e+009       0.499318749         -110.77448         5.87157736         72.4736995       0.0469110065         5.02069953        0.354857056        -76.2832401
         2.76e+009       0.496688568        -111.234576         5.86021766         72.1733884       0.0467782438         4.54012173        0.352589071        -76.3594725
         2.77e+009       0.494122676        -111.704611         5.85084203         71.8603121       0.0467368945         4.08937879        0.351355365        -76.3917357
         2.78e+009       0.491955454        -112.232736         5.85537771         71.4570938        0.047334876         3.84669378        0.357316749        -76.1227389
         2.79e+009       0.491309207        -112.617543         5.82909035         71.1333298       0.0476698382         3.64466313         0.36036273        -76.1285141
          2.8e+009       0.495210148        -112.566283         5.71026756         71.0477069       0.0472179035         3.56437356        0.354668825        -76.9553943
         2.81e+009       0.494681619        -112.983158         5.67566837         70.7289471       0.0472449938          3.3947471        0.353570864        -77.4392482
         2.82e+009        0.48681374        -114.187918         5.78138981         70.0232086       0.0480683908         3.07780865        0.360128356        -77.3533811
         2.83e+009       0.482120753        -115.095098         5.82375613         69.4834815       0.0481532704          2.8146148        0.359155036        -77.6942829
         2.84e+009       0.480539146        -115.698975         5.80318283          69.107897       0.0475033556         2.60329696        0.350707853        -78.4694231
         2.85e+009       0.478615289        -116.290368          5.7931907         68.7343857       0.0472769619         2.31905233         0.34632035        -78.9874561
         2.86e+009       0.476491789        -116.875307         5.78953066         68.3622126       0.0473042057         1.99114589        0.344370433        -79.3496712
         2.87e+009       0.474050509        -117.507138         5.80175096         67.9828184       0.0474598351         1.81321838        0.344411733        -79.5633874
         2.88e+009        0.47151614        -118.156644         5.81921302         67.6012374       0.0476577659         1.68550406        0.345112089         -79.727254
         2.89e+009       0.475403589        -117.958327         5.67911795         67.5314354       0.0478517463         1.33850208        0.345531964         -79.942685
          2.9e+009       0.480237099        -117.638414         5.51604957         67.5068163        0.048046563        0.960816321        0.345927078        -80.1629224
         2.91e+009       0.471397047        -118.929453         5.64642809         66.8221872       0.0488154351        0.680987178        0.352229589        -79.4315211
         2.92e+009       0.463680678        -120.154177         5.75898262         66.1764295       0.0493861731        0.416362862        0.356303765        -78.9600348
         2.93e+009         0.4630159        -120.834949         5.75154934         65.7824027       0.0485979077        0.237802665        0.345447066        -80.4096688
         2.94e+009       0.461895734        -121.504886         5.74841534         65.3949503       0.0480235608       0.0236835978         0.33703795        -81.5436996
         2.95e+009        0.45938323        -122.139475         5.75826119         65.0271866       0.0480890338       -0.297146768        0.335963545        -81.7051998
         2.96e+009       0.456903218        -122.820022         5.76491512         64.6365484       0.0481939259       -0.500451634        0.335382264         -81.953274
         2.97e+009       0.454469381        -123.575585         5.76628197         64.2076824       0.0483645056       -0.507984281        0.335625537        -82.3471286
         2.98e+009       0.455508827        -123.720736         5.68692997         64.0174035       0.0484714908       -0.719596455        0.336378477        -82.6237768
         2.99e+009       0.460030293        -123.253221         5.52648736         64.0661194       0.0485161431         -1.1348806        0.337646918        -82.7824491
            3e+009       0.456608353         -124.02716         5.55641208         63.6150433       0.0492318364        -1.44495666        0.342740332        -82.5600335
